
T32DC 000:307 SEGGER J-Link V5.02b Log File (0000ms, 0273ms total)
T32DC 000:307 DLL Compiled: Sep  8 2015 18:47:15 (0000ms, 0273ms total)
T32DC 000:307 Logging started @ 2016-10-20 20:06 (0000ms, 0273ms total)
T32DC 000:307 JLINK_SetWarnOutHandler(...) (0000ms, 0273ms total)
T32DC 000:307 JLINK_OpenEx(...)
Firmware: J-Link ARM-OB STM32 compiled Aug 22 2012 19:52:04
Hardware: V7.00
S/N: 20090928
Feature(s): RDI,FlashDL,FlashBP,JFlash,GDBFull  returns O.K. (0265ms, 0538ms total)
T32DC 000:572 JLINK_SetErrorOutHandler(...) (0000ms, 0538ms total)
T32DC 000:572 JLINK_ExecCommand("ProjectFile = "F:\×ÀÃæÁÙÊ±³ÌÐò\Dlion_Firmware_V02\Project\Pro\JLinkSettings.ini"", ...)  returns 0x00 (0001ms, 0539ms total)
T32DC 000:574 JLINK_ExecCommand("Device = STM32F103ZE", ...)Device "STM32F103ZE" selected.  returns 0x00 (0006ms, 0545ms total)
T32DC 000:580 JLINK_ExecCommand("DisableConnectionTimeout", ...)  returns 0x01 (0000ms, 0545ms total)
T32DC 000:580 JLINK_GetHardwareVersion()  returns 0x11170 (0000ms, 0545ms total)
T32DC 000:580 JLINK_GetDLLVersion()  returns 50202 (0000ms, 0545ms total)
T32DC 000:580 JLINK_GetFirmwareString(...) (0000ms, 0545ms total)
T32DC 000:587 JLINK_GetDLLVersion()  returns 50202 (0000ms, 0545ms total)
T32DC 000:587 JLINK_GetCompileDateTime() (0000ms, 0545ms total)
T32DC 000:590 JLINK_GetFirmwareString(...) (0000ms, 0546ms total)
T32DC 000:591 JLINK_GetHardwareVersion()  returns 0x11170 (0000ms, 0546ms total)
T32DC 000:606 JLINK_TIF_Select(JLINKARM_TIF_SWD)  returns 0x00 (0001ms, 0547ms total)
T32DC 000:607 JLINK_SetSpeed(10000) (0000ms, 0547ms total)
T32DC 000:607 JLINK_GetId() >0x108 TIF>Found SWD-DP with ID 0x1BA01477 >0x0D TIF> >0x28 TIF> >0x0D TIF> >0x28 TIF> >0x0D TIF> >0x21 TIF> >0x0D TIF> >0x28 TIF> >0x0D TIF> >0x28 TIF> >0x0D TIF> >0x28 TIF> >0x0D TIF> >0x21 TIF> >0x0D TIF> >0x21 TIF> >0x0D TIF> >0x28 TIF> >0x0D TIF> >0x21 TIF> >0x0D TIF> >0x21 TIF> >0x0D TIF> >0x28 TIF> >0x0D TIF> >0x21 TIF> >0x0D TIF> >0x21 TIF> >0x108 TIF>Found SWD-DP with ID 0x1BA01477 >0x0D TIF> >0x21 TIF> >0x0D TIF> >0x28 TIF> >0x0D TIF> >0x28 TIF> >0x0D TIF> >0x21 TIF>
 >0x0D TIF> >0x28 TIF> >0x0D TIF> >0x21 TIF> >0x0D TIF> >0x21 TIF> >0x0D TIF> >0x21 TIF> >0x0D TIF> >0x21 TIF> >0x0D TIF> >0x28 TIF> >0x0D TIF> >0x28 TIF> >0x0D TIF> >0x21 TIF> >0x0D TIF> >0x28 TIF> >0x0D TIF> >0x28 TIF> >0x0D TIF> >0x28 TIF> >0x0D TIF> >0x21 TIF> >0x0D TIF> >0x21 TIF> >0x0D TIF> >0x28 TIF> >0x0D TIF> >0x21 TIF> >0x0D TIF> >0x21 TIF>Found Cortex-M3 r1p1, Little endian. -- CPU_ReadMem(4 bytes @ 0xE000EDF0) -- CPU_ReadMem(4 bytes @ 0xE0002000)FPUnit: 6 code (BP) slots and 2 literal slots
 -- CPU_ReadMem(4 bytes @ 0xE000EDFC) -- CPU_ReadMem(4 bytes @ 0xE0001000) -- CPU_WriteMem(4 bytes @ 0xE0001000) -- CPU_ReadMem(4 bytes @ 0xE000ED88) -- CPU_WriteMem(4 bytes @ 0xE000ED88) -- CPU_ReadMem(4 bytes @ 0xE000ED88) -- CPU_WriteMem(4 bytes @ 0xE000ED88)CoreSight components:ROMTbl 0 @ E00FF000 -- CPU_ReadMem(16 bytes @ 0xE00FF000) -- CPU_ReadMem(16 bytes @ 0xE000EFF0) -- CPU_ReadMem(16 bytes @ 0xE000EFE0)ROMTbl 0 [0]: FFF0F000, CID: B105E00D, PID: 001BB000 SCS
 -- CPU_ReadMem(16 bytes @ 0xE0001FF0) -- CPU_ReadMem(16 bytes @ 0xE0001FE0)ROMTbl 0 [1]: FFF02000, CID: B105E00D, PID: 001BB002 DWT -- CPU_ReadMem(16 bytes @ 0xE0002FF0) -- CPU_ReadMem(16 bytes @ 0xE0002FE0)ROMTbl 0 [2]: FFF03000, CID: B105E00D, PID: 000BB003 FPB -- CPU_ReadMem(16 bytes @ 0xE0000FF0) -- CPU_ReadMem(16 bytes @ 0xE0000FE0)ROMTbl 0 [3]: FFF01000, CID: B105E00D, PID: 001BB001 ITM -- CPU_ReadMem(16 bytes @ 0xE00FF010) -- CPU_ReadMem(16 bytes @ 0xE0040FF0)
 -- CPU_ReadMem(16 bytes @ 0xE0040FE0)ROMTbl 0 [4]: FFF41000, CID: B105900D, PID: 001BB923 TPIU-Lite -- CPU_ReadMem(16 bytes @ 0xE0041FF0) -- CPU_ReadMem(16 bytes @ 0xE0041FE0)ROMTbl 0 [5]: FFF42000, CID: B105900D, PID: 101BB924 ETM-M3 >0x0D TIF> >0x21 TIF>  returns 0x1BA01477 (0103ms, 0650ms total)
T32DC 000:710 JLINK_GetDeviceFamily()  returns 3 (0000ms, 0650ms total)
T32DC 000:713 JLINK_ReadMem (0xE00FFFF0, 0x0010 Bytes, ...) -- CPU is running -- CPU_ReadMem(16 bytes @ 0xE00FFFF0) - Data: 0D 00 00 00 10 00 00 00 05 00 00 00 B1 00 00 00  returns 0x00 (0001ms, 0651ms total)
T32DC 000:714 JLINK_ReadMem (0xE00FFFD0, 0x0020 Bytes, ...) -- CPU is running -- CPU_ReadMem(32 bytes @ 0xE00FFFD0) - Data: 00 00 00 00 00 00 00 00 00 00 00 00 00 00 00 00 ...  returns 0x00 (0001ms, 0652ms total)
T32DC 000:715 JLINK_ReadMem (0xE00FF000, 0x0018 Bytes, ...) -- CPU is running -- CPU_ReadMem(24 bytes @ 0xE00FF000) - Data: 03 F0 F0 FF 03 20 F0 FF 03 30 F0 FF 03 10 F0 FF ...  returns 0x00 (0001ms, 0653ms total)
T32DC 000:716 JLINK_ReadMemU32(0xE000ED00, 0x0001 Items, ...) -- CPU is running -- CPU_ReadMem(4 bytes @ 0xE000ED00) - Data: 31 C2 1F 41  returns 0x01 (0001ms, 0654ms total)
T32DC 000:717 JLINK_SetResetType(JLINKARM_RESET_TYPE_NORMAL)  returns JLINKARM_RESET_TYPE_NORMAL (0000ms, 0654ms total)
T32DC 000:717 JLINK_Reset() -- CPU is running -- CPU_WriteMem(4 bytes @ 0xE000EDF0) -- CPU is running -- CPU_WriteMem(4 bytes @ 0xE000EDFC) >0x35 TIF> -- CPU is running -- CPU_WriteMem(4 bytes @ 0xE000ED0C) -- CPU is running -- CPU_ReadMem(4 bytes @ 0xE000EDF0) -- CPU is running -- CPU_ReadMem(4 bytes @ 0xE000EDF0) -- CPU is running -- CPU_ReadMem(4 bytes @ 0xE000EDF0) -- CPU is running -- CPU_ReadMem(4 bytes @ 0xE000EDF0) -- CPU is running -- CPU_ReadMem(4 bytes @ 0xE000EDF0) -- CPU is running
 -- CPU_ReadMem(4 bytes @ 0xE000EDF0) -- CPU is running -- CPU_ReadMem(4 bytes @ 0xE000EDF0) -- CPU is running -- CPU_ReadMem(4 bytes @ 0xE000EDF0) -- CPU is running -- CPU_ReadMem(4 bytes @ 0xE000EDF0) -- CPU is running -- CPU_ReadMem(4 bytes @ 0xE000EDF0) -- CPU is running -- CPU_ReadMem(4 bytes @ 0xE000EDF0) -- CPU is running -- CPU_ReadMem(4 bytes @ 0xE000EDF0) -- CPU is running -- CPU_ReadMem(4 bytes @ 0xE000EDF0) -- CPU is running -- CPU_ReadMem(4 bytes @ 0xE000EDF0) -- CPU is running
 -- CPU_ReadMem(4 bytes @ 0xE000EDF0) -- CPU is running -- CPU_ReadMem(4 bytes @ 0xE000EDF0) -- CPU is running -- CPU_ReadMem(4 bytes @ 0xE000EDF0) -- CPU is running -- CPU_ReadMem(4 bytes @ 0xE000EDF0) -- CPU is running -- CPU_ReadMem(4 bytes @ 0xE000EDF0) -- CPU is running -- CPU_ReadMem(4 bytes @ 0xE000EDF0) -- CPU is running -- CPU_ReadMem(4 bytes @ 0xE000EDF0) -- CPU is running -- CPU_ReadMem(4 bytes @ 0xE000EDF0) -- CPU is running -- CPU_ReadMem(4 bytes @ 0xE000EDF0) -- CPU is running
 -- CPU_ReadMem(4 bytes @ 0xE000EDF0) -- CPU is running -- CPU_ReadMem(4 bytes @ 0xE000EDF0) -- CPU is running -- CPU_WriteMem(4 bytes @ 0xE000EDF0) -- CPU is running -- CPU_WriteMem(4 bytes @ 0xE000EDFC) -- CPU is running -- CPU_ReadMem(4 bytes @ 0xE000EDF0) -- CPU_WriteMem(4 bytes @ 0xE0002000) -- CPU_ReadMem(4 bytes @ 0xE000EDFC) -- CPU_ReadMem(4 bytes @ 0xE0001000) (0037ms, 0691ms total)
T32DC 000:754 JLINK_Halt()  returns 0x00 (0000ms, 0691ms total)
T32DC 000:754 JLINK_IsHalted()  returns TRUE (0000ms, 0691ms total)
T32DC 000:754 JLINK_ReadMemU32(0xE000EDF0, 0x0001 Items, ...) -- CPU_ReadMem(4 bytes @ 0xE000EDF0) - Data: 03 00 03 00  returns 0x01 (0001ms, 0692ms total)
T32DC 000:755 JLINK_WriteU32(0xE000EDF0, 0xA05F0003) -- CPU_WriteMem(4 bytes @ 0xE000EDF0)  returns 0x00 (0001ms, 0693ms total)
T32DC 000:756 JLINK_WriteU32(0xE000EDFC, 0x01000000) -- CPU_WriteMem(4 bytes @ 0xE000EDFC)  returns 0x00 (0000ms, 0693ms total)
T32DC 000:772 JLINK_GetHWStatus(...)  returns 0x00 (0001ms, 0694ms total)
T32DC 000:781 JLINK_GetNumBPUnits(Type = 0xFFFFFF00)  returns 0x06 (0000ms, 0694ms total)
T32DC 000:781 JLINK_GetNumBPUnits(Type = 0xF0)  returns 0x2000 (0000ms, 0694ms total)
T32DC 000:781 JLINK_GetNumWPUnits()  returns 0x04 (0001ms, 0695ms total)
T32DC 000:791 JLINK_GetSpeed()  returns 0xFA0 (0000ms, 0695ms total)
T32DC 000:798 JLINK_ReadMemU32(0xE000E004, 0x0001 Items, ...) -- CPU_ReadMem(4 bytes @ 0xE000E004) - Data: 01 00 00 00  returns 0x01 (0001ms, 0696ms total)
T32DC 000:799 JLINK_ReadMemU32(0xE000E004, 0x0001 Items, ...) -- CPU_ReadMem(4 bytes @ 0xE000E004) - Data: 01 00 00 00  returns 0x01 (0001ms, 0697ms total)
T32DC 000:800 JLINK_WriteMem(0xE0001000, 0x001C Bytes, ...) - Data: 01 00 00 00 00 00 00 00 00 00 00 00 00 00 00 00 ... -- CPU_WriteMem(28 bytes @ 0xE0001000)  returns 0x1C (0002ms, 0699ms total)
T32DC 000:802 JLINK_ReadMem (0xE0001000, 0x001C Bytes, ...) -- CPU_ReadMem(28 bytes @ 0xE0001000) - Data: 01 00 00 40 00 00 00 00 00 00 00 00 00 00 00 00 ...  returns 0x00 (0001ms, 0700ms total)
T32DC 000:803 JLINK_Halt()  returns 0x00 (0000ms, 0700ms total)
T32DC 000:803 JLINK_IsHalted()  returns TRUE (0000ms, 0700ms total)
T32DC 000:806 JLINK_WriteMem(0x20000000, 0x0164 Bytes, ...) - Data: 00 BE 0A E0 0D 78 2D 06 68 40 08 24 40 00 00 D3 ... -- CPU_WriteMem(356 bytes @ 0x20000000)  returns 0x164 (0005ms, 0705ms total)
T32DC 000:811 JLINK_WriteReg(R0, 0x08000000)  returns 0x00 (0000ms, 0705ms total)
T32DC 000:811 JLINK_WriteReg(R1, 0x007A1200)  returns 0x00 (0000ms, 0705ms total)
T32DC 000:811 JLINK_WriteReg(R2, 0x00000001)  returns 0x00 (0000ms, 0705ms total)
T32DC 000:811 JLINK_WriteReg(R3, 0x00000000)  returns 0x00 (0000ms, 0705ms total)
T32DC 000:811 JLINK_WriteReg(R4, 0x00000000)  returns 0x00 (0001ms, 0706ms total)
T32DC 000:812 JLINK_WriteReg(R5, 0x00000000)  returns 0x00 (0000ms, 0706ms total)
T32DC 000:812 JLINK_WriteReg(R6, 0x00000000)  returns 0x00 (0000ms, 0706ms total)
T32DC 000:812 JLINK_WriteReg(R7, 0x00000000)  returns 0x00 (0000ms, 0706ms total)
T32DC 000:812 JLINK_WriteReg(R8, 0x00000000)  returns 0x00 (0000ms, 0706ms total)
T32DC 000:812 JLINK_WriteReg(R9, 0x20000160)  returns 0x00 (0000ms, 0706ms total)
T32DC 000:812 JLINK_WriteReg(R10, 0x00000000)  returns 0x00 (0000ms, 0706ms total)
T32DC 000:812 JLINK_WriteReg(R11, 0x00000000)  returns 0x00 (0000ms, 0706ms total)
T32DC 000:812 JLINK_WriteReg(R12, 0x00000000)  returns 0x00 (0000ms, 0706ms total)
T32DC 000:812 JLINK_WriteReg(R13 (SP), 0x20000800)  returns 0x00 (0000ms, 0706ms total)
T32DC 000:812 JLINK_WriteReg(R14, 0x20000001)  returns 0x00 (0000ms, 0706ms total)
T32DC 000:812 JLINK_WriteReg(R15 (PC), 0x20000038)  returns 0x00 (0000ms, 0706ms total)
T32DC 000:812 JLINK_WriteReg(XPSR, 0x01000000)  returns 0x00 (0000ms, 0706ms total)
T32DC 000:812 JLINK_WriteReg(MSP, 0x20000800)  returns 0x00 (0000ms, 0706ms total)
T32DC 000:812 JLINK_WriteReg(PSP, 0x20000800)  returns 0x00 (0000ms, 0706ms total)
T32DC 000:812 JLINK_WriteReg(CFBP, 0x00000000)  returns 0x00 (0000ms, 0706ms total)
T32DC 000:812 JLINK_SetBPEx(Addr = 0x20000000, Type = 0xFFFFFFF2) -- CPU_ReadMem(2 bytes @ 0x20000000)  returns 0x00000001 (0001ms, 0707ms total)
T32DC 000:813 JLINK_Go() -- CPU_WriteMem(2 bytes @ 0x20000000) -- CPU_ReadMem(4 bytes @ 0xE0001000) -- CPU_WriteMem(4 bytes @ 0xE0002008) -- CPU_WriteMem(4 bytes @ 0xE000200C) -- CPU_WriteMem(4 bytes @ 0xE0002010) -- CPU_WriteMem(4 bytes @ 0xE0002014) -- CPU_WriteMem(4 bytes @ 0xE0002018) -- CPU_WriteMem(4 bytes @ 0xE000201C) -- CPU_WriteMem(4 bytes @ 0xE0001004) (0007ms, 0714ms total)
T32DC 000:820 JLINK_IsHalted() -- CPU_ReadMem(2 bytes @ 0x20000000)  returns TRUE (0004ms, 0718ms total)
T32DC 000:824 JLINK_ReadReg(R15 (PC))  returns 0x20000000 (0000ms, 0714ms total)
T32DC 000:824 JLINK_ClrBPEx(BPHandle = 0x00000001)  returns 0x00 (0000ms, 0714ms total)
T32DC 000:824 JLINK_ReadReg(R0)  returns 0x00000000 (0000ms, 0714ms total)
T32DC 000:825 JLINK_WriteReg(R0, 0x08000000)  returns 0x00 (0000ms, 0714ms total)
T32DC 000:825 JLINK_WriteReg(R1, 0x007A1200)  returns 0x00 (0000ms, 0714ms total)
T32DC 000:825 JLINK_WriteReg(R2, 0x00000001)  returns 0x00 (0000ms, 0714ms total)
T32DC 000:825 JLINK_WriteReg(R3, 0x00000000)  returns 0x00 (0000ms, 0714ms total)
T32DC 000:825 JLINK_WriteReg(R4, 0x00000000)  returns 0x00 (0000ms, 0714ms total)
T32DC 000:825 JLINK_WriteReg(R5, 0x00000000)  returns 0x00 (0000ms, 0714ms total)
T32DC 000:825 JLINK_WriteReg(R6, 0x00000000)  returns 0x00 (0000ms, 0714ms total)
T32DC 000:825 JLINK_WriteReg(R7, 0x00000000)  returns 0x00 (0000ms, 0714ms total)
T32DC 000:825 JLINK_WriteReg(R8, 0x00000000)  returns 0x00 (0000ms, 0714ms total)
T32DC 000:825 JLINK_WriteReg(R9, 0x20000160)  returns 0x00 (0000ms, 0714ms total)
T32DC 000:825 JLINK_WriteReg(R10, 0x00000000)  returns 0x00 (0000ms, 0714ms total)
T32DC 000:825 JLINK_WriteReg(R11, 0x00000000)  returns 0x00 (0000ms, 0714ms total)
T32DC 000:825 JLINK_WriteReg(R12, 0x00000000)  returns 0x00 (0000ms, 0714ms total)
T32DC 000:825 JLINK_WriteReg(R13 (SP), 0x20000800)  returns 0x00 (0000ms, 0714ms total)
T32DC 000:825 JLINK_WriteReg(R14, 0x20000001)  returns 0x00 (0001ms, 0715ms total)
T32DC 000:826 JLINK_WriteReg(R15 (PC), 0x2000007C)  returns 0x00 (0000ms, 0715ms total)
T32DC 000:826 JLINK_WriteReg(XPSR, 0x01000000)  returns 0x00 (0000ms, 0715ms total)
T32DC 000:826 JLINK_WriteReg(MSP, 0x20000800)  returns 0x00 (0000ms, 0715ms total)
T32DC 000:826 JLINK_WriteReg(PSP, 0x20000800)  returns 0x00 (0000ms, 0715ms total)
T32DC 000:826 JLINK_WriteReg(CFBP, 0x00000000)  returns 0x00 (0000ms, 0715ms total)
T32DC 000:826 JLINK_SetBPEx(Addr = 0x20000000, Type = 0xFFFFFFF2)  returns 0x00000002 (0000ms, 0715ms total)
T32DC 000:826 JLINK_Go() -- CPU_ReadMem(4 bytes @ 0xE0001000) (0003ms, 0718ms total)
T32DC 000:829 JLINK_IsHalted()  returns FALSE (0001ms, 0719ms total)
T32DC 000:877 JLINK_IsHalted() -- CPU_ReadMem(2 bytes @ 0x20000000)  returns TRUE (0004ms, 0722ms total)
T32DC 000:881 JLINK_ReadReg(R15 (PC))  returns 0x20000000 (0000ms, 0718ms total)
T32DC 000:881 JLINK_ClrBPEx(BPHandle = 0x00000002)  returns 0x00 (0000ms, 0718ms total)
T32DC 000:881 JLINK_ReadReg(R0)  returns 0x00000000 (0000ms, 0718ms total)
T32DC 000:931 JLINK_WriteReg(R0, 0x00000001)  returns 0x00 (0000ms, 0718ms total)
T32DC 000:931 JLINK_WriteReg(R1, 0x007A1200)  returns 0x00 (0000ms, 0718ms total)
T32DC 000:931 JLINK_WriteReg(R2, 0x00000001)  returns 0x00 (0000ms, 0718ms total)
T32DC 000:931 JLINK_WriteReg(R3, 0x00000000)  returns 0x00 (0000ms, 0718ms total)
T32DC 000:931 JLINK_WriteReg(R4, 0x00000000)  returns 0x00 (0000ms, 0718ms total)
T32DC 000:931 JLINK_WriteReg(R5, 0x00000000)  returns 0x00 (0001ms, 0719ms total)
T32DC 000:932 JLINK_WriteReg(R6, 0x00000000)  returns 0x00 (0000ms, 0719ms total)
T32DC 000:932 JLINK_WriteReg(R7, 0x00000000)  returns 0x00 (0000ms, 0719ms total)
T32DC 000:932 JLINK_WriteReg(R8, 0x00000000)  returns 0x00 (0000ms, 0719ms total)
T32DC 000:932 JLINK_WriteReg(R9, 0x20000160)  returns 0x00 (0000ms, 0719ms total)
T32DC 000:932 JLINK_WriteReg(R10, 0x00000000)  returns 0x00 (0000ms, 0719ms total)
T32DC 000:932 JLINK_WriteReg(R11, 0x00000000)  returns 0x00 (0000ms, 0719ms total)
T32DC 000:932 JLINK_WriteReg(R12, 0x00000000)  returns 0x00 (0000ms, 0719ms total)
T32DC 000:932 JLINK_WriteReg(R13 (SP), 0x20000800)  returns 0x00 (0000ms, 0719ms total)
T32DC 000:932 JLINK_WriteReg(R14, 0x20000001)  returns 0x00 (0000ms, 0719ms total)
T32DC 000:932 JLINK_WriteReg(R15 (PC), 0x2000006A)  returns 0x00 (0000ms, 0719ms total)
T32DC 000:932 JLINK_WriteReg(XPSR, 0x01000000)  returns 0x00 (0000ms, 0719ms total)
T32DC 000:932 JLINK_WriteReg(MSP, 0x20000800)  returns 0x00 (0000ms, 0719ms total)
T32DC 000:932 JLINK_WriteReg(PSP, 0x20000800)  returns 0x00 (0000ms, 0719ms total)
T32DC 000:932 JLINK_WriteReg(CFBP, 0x00000000)  returns 0x00 (0000ms, 0719ms total)
T32DC 000:932 JLINK_SetBPEx(Addr = 0x20000000, Type = 0xFFFFFFF2)  returns 0x00000003 (0000ms, 0719ms total)
T32DC 000:932 JLINK_Go() -- CPU_ReadMem(4 bytes @ 0xE0001000) (0003ms, 0722ms total)
T32DC 000:935 JLINK_IsHalted() -- CPU_ReadMem(2 bytes @ 0x20000000)  returns TRUE (0004ms, 0726ms total)
T32DC 000:939 JLINK_ReadReg(R15 (PC))  returns 0x20000000 (0000ms, 0722ms total)
T32DC 000:939 JLINK_ClrBPEx(BPHandle = 0x00000003)  returns 0x00 (0000ms, 0722ms total)
T32DC 000:939 JLINK_ReadReg(R0)  returns 0x00000000 (0000ms, 0722ms total)
T32DC 000:945 JLINK_WriteMem(0x20000000, 0x0164 Bytes, ...) - Data: 00 BE 0A E0 0D 78 2D 06 68 40 08 24 40 00 00 D3 ... -- CPU_WriteMem(356 bytes @ 0x20000000)  returns 0x164 (0005ms, 0727ms total)
T32DC 000:950 JLINK_WriteReg(R0, 0x08000000)  returns 0x00 (0000ms, 0727ms total)
T32DC 000:950 JLINK_WriteReg(R1, 0x007A1200)  returns 0x00 (0000ms, 0727ms total)
T32DC 000:950 JLINK_WriteReg(R2, 0x00000002)  returns 0x00 (0000ms, 0727ms total)
T32DC 000:950 JLINK_WriteReg(R3, 0x00000000)  returns 0x00 (0000ms, 0727ms total)
T32DC 000:950 JLINK_WriteReg(R4, 0x00000000)  returns 0x00 (0000ms, 0727ms total)
T32DC 000:950 JLINK_WriteReg(R5, 0x00000000)  returns 0x00 (0000ms, 0727ms total)
T32DC 000:950 JLINK_WriteReg(R6, 0x00000000)  returns 0x00 (0000ms, 0727ms total)
T32DC 000:950 JLINK_WriteReg(R7, 0x00000000)  returns 0x00 (0000ms, 0727ms total)
T32DC 000:950 JLINK_WriteReg(R8, 0x00000000)  returns 0x00 (0000ms, 0727ms total)
T32DC 000:950 JLINK_WriteReg(R9, 0x20000160)  returns 0x00 (0000ms, 0727ms total)
T32DC 000:950 JLINK_WriteReg(R10, 0x00000000)  returns 0x00 (0000ms, 0727ms total)
T32DC 000:950 JLINK_WriteReg(R11, 0x00000000)  returns 0x00 (0000ms, 0727ms total)
T32DC 000:950 JLINK_WriteReg(R12, 0x00000000)  returns 0x00 (0000ms, 0727ms total)
T32DC 000:950 JLINK_WriteReg(R13 (SP), 0x20000800)  returns 0x00 (0000ms, 0727ms total)
T32DC 000:950 JLINK_WriteReg(R14, 0x20000001)  returns 0x00 (0000ms, 0727ms total)
T32DC 000:950 JLINK_WriteReg(R15 (PC), 0x20000038)  returns 0x00 (0000ms, 0727ms total)
T32DC 000:950 JLINK_WriteReg(XPSR, 0x01000000)  returns 0x00 (0000ms, 0727ms total)
T32DC 000:950 JLINK_WriteReg(MSP, 0x20000800)  returns 0x00 (0001ms, 0728ms total)
T32DC 000:951 JLINK_WriteReg(PSP, 0x20000800)  returns 0x00 (0000ms, 0728ms total)
T32DC 000:951 JLINK_WriteReg(CFBP, 0x00000000)  returns 0x00 (0000ms, 0728ms total)
T32DC 000:951 JLINK_SetBPEx(Addr = 0x20000000, Type = 0xFFFFFFF2) -- CPU_ReadMem(2 bytes @ 0x20000000)  returns 0x00000004 (0000ms, 0728ms total)
T32DC 000:951 JLINK_Go() -- CPU_WriteMem(2 bytes @ 0x20000000) -- CPU_ReadMem(4 bytes @ 0xE0001000) (0004ms, 0732ms total)
T32DC 000:955 JLINK_IsHalted() -- CPU_ReadMem(2 bytes @ 0x20000000)  returns TRUE (0004ms, 0736ms total)
T32DC 000:959 JLINK_ReadReg(R15 (PC))  returns 0x20000000 (0000ms, 0732ms total)
T32DC 000:959 JLINK_ClrBPEx(BPHandle = 0x00000004)  returns 0x00 (0000ms, 0732ms total)
T32DC 000:959 JLINK_ReadReg(R0)  returns 0x00000000 (0000ms, 0732ms total)
T32DC 000:960 JLINK_WriteMem(0x20000164, 0x0400 Bytes, ...) - Data: C8 EF 00 20 AD 75 01 08 B1 75 01 08 B3 75 01 08 ... -- CPU_WriteMem(1024 bytes @ 0x20000164)  returns 0x400 (0012ms, 0744ms total)
T32DC 000:972 JLINK_WriteReg(R0, 0x08000000)  returns 0x00 (0000ms, 0744ms total)
T32DC 000:972 JLINK_WriteReg(R1, 0x00000400)  returns 0x00 (0000ms, 0744ms total)
T32DC 000:972 JLINK_WriteReg(R2, 0x20000164)  returns 0x00 (0000ms, 0744ms total)
T32DC 000:972 JLINK_WriteReg(R3, 0x00000000)  returns 0x00 (0000ms, 0744ms total)
T32DC 000:972 JLINK_WriteReg(R4, 0x00000000)  returns 0x00 (0000ms, 0744ms total)
T32DC 000:972 JLINK_WriteReg(R5, 0x00000000)  returns 0x00 (0000ms, 0744ms total)
T32DC 000:972 JLINK_WriteReg(R6, 0x00000000)  returns 0x00 (0001ms, 0745ms total)
T32DC 000:973 JLINK_WriteReg(R7, 0x00000000)  returns 0x00 (0000ms, 0745ms total)
T32DC 000:973 JLINK_WriteReg(R8, 0x00000000)  returns 0x00 (0000ms, 0745ms total)
T32DC 000:973 JLINK_WriteReg(R9, 0x20000160)  returns 0x00 (0000ms, 0745ms total)
T32DC 000:973 JLINK_WriteReg(R10, 0x00000000)  returns 0x00 (0000ms, 0745ms total)
T32DC 000:973 JLINK_WriteReg(R11, 0x00000000)  returns 0x00 (0000ms, 0745ms total)
T32DC 000:973 JLINK_WriteReg(R12, 0x00000000)  returns 0x00 (0000ms, 0745ms total)
T32DC 000:973 JLINK_WriteReg(R13 (SP), 0x20000800)  returns 0x00 (0000ms, 0745ms total)
T32DC 000:973 JLINK_WriteReg(R14, 0x20000001)  returns 0x00 (0000ms, 0745ms total)
T32DC 000:973 JLINK_WriteReg(R15 (PC), 0x200000F4)  returns 0x00 (0000ms, 0745ms total)
T32DC 000:973 JLINK_WriteReg(XPSR, 0x01000000)  returns 0x00 (0000ms, 0745ms total)
T32DC 000:973 JLINK_WriteReg(MSP, 0x20000800)  returns 0x00 (0000ms, 0745ms total)
T32DC 000:973 JLINK_WriteReg(PSP, 0x20000800)  returns 0x00 (0000ms, 0745ms total)
T32DC 000:973 JLINK_WriteReg(CFBP, 0x00000000)  returns 0x00 (0000ms, 0745ms total)
T32DC 000:973 JLINK_SetBPEx(Addr = 0x20000000, Type = 0xFFFFFFF2)  returns 0x00000005 (0000ms, 0745ms total)
T32DC 000:973 JLINK_Go() -- CPU_ReadMem(4 bytes @ 0xE0001000) (0003ms, 0748ms total)
T32DC 000:976 JLINK_IsHalted()  returns FALSE (0001ms, 0749ms total)
T32DC 000:985 JLINK_IsHalted()  returns FALSE (0000ms, 0748ms total)
T32DC 000:986 JLINK_IsHalted()  returns FALSE (0000ms, 0748ms total)
T32DC 000:987 JLINK_IsHalted()  returns FALSE (0000ms, 0748ms total)
T32DC 000:988 JLINK_IsHalted()  returns FALSE (0000ms, 0748ms total)
T32DC 000:989 JLINK_IsHalted()  returns FALSE (0000ms, 0748ms total)
T32DC 000:990 JLINK_IsHalted()  returns FALSE (0000ms, 0748ms total)
T32DC 000:991 JLINK_IsHalted()  returns FALSE (0000ms, 0748ms total)
T32DC 000:992 JLINK_IsHalted()  returns FALSE (0000ms, 0748ms total)
T32DC 000:993 JLINK_IsHalted()  returns FALSE (0000ms, 0748ms total)
T32DC 000:994 JLINK_IsHalted()  returns FALSE (0000ms, 0748ms total)
T32DC 000:995 JLINK_IsHalted()  returns FALSE (0000ms, 0748ms total)
T32DC 000:996 JLINK_IsHalted()  returns FALSE (0000ms, 0748ms total)
T32DC 000:997 JLINK_IsHalted()  returns FALSE (0000ms, 0748ms total)
T32DC 000:998 JLINK_IsHalted()  returns FALSE (0000ms, 0748ms total)
T32DC 000:999 JLINK_IsHalted()  returns FALSE (0000ms, 0748ms total)
T32DC 001:000 JLINK_IsHalted()  returns FALSE (0000ms, 0748ms total)
T32DC 001:001 JLINK_IsHalted()  returns FALSE (0001ms, 0749ms total)
T32DC 001:003 JLINK_IsHalted()  returns FALSE (0000ms, 0748ms total)
T32DC 001:004 JLINK_IsHalted()  returns FALSE (0000ms, 0748ms total)
T32DC 001:005 JLINK_IsHalted()  returns FALSE (0000ms, 0748ms total)
T32DC 001:006 JLINK_IsHalted()  returns FALSE (0000ms, 0748ms total)
T32DC 001:007 JLINK_IsHalted() -- CPU_ReadMem(2 bytes @ 0x20000000)  returns TRUE (0004ms, 0752ms total)
T32DC 001:011 JLINK_ReadReg(R15 (PC))  returns 0x20000000 (0000ms, 0748ms total)
T32DC 001:011 JLINK_ClrBPEx(BPHandle = 0x00000005)  returns 0x00 (0000ms, 0748ms total)
T32DC 001:011 JLINK_ReadReg(R0)  returns 0x00000000 (0000ms, 0748ms total)
T32DC 001:012 JLINK_WriteMem(0x20000164, 0x0400 Bytes, ...) - Data: 20 F0 03 00 08 60 08 46 00 68 40 F0 02 00 08 60 ... -- CPU_WriteMem(1024 bytes @ 0x20000164)  returns 0x400 (0012ms, 0760ms total)
T32DC 001:024 JLINK_WriteReg(R0, 0x08000400)  returns 0x00 (0000ms, 0760ms total)
T32DC 001:024 JLINK_WriteReg(R1, 0x00000400)  returns 0x00 (0000ms, 0760ms total)
T32DC 001:024 JLINK_WriteReg(R2, 0x20000164)  returns 0x00 (0000ms, 0760ms total)
T32DC 001:024 JLINK_WriteReg(R3, 0x00000000)  returns 0x00 (0001ms, 0761ms total)
T32DC 001:025 JLINK_WriteReg(R4, 0x00000000)  returns 0x00 (0000ms, 0761ms total)
T32DC 001:025 JLINK_WriteReg(R5, 0x00000000)  returns 0x00 (0000ms, 0761ms total)
T32DC 001:025 JLINK_WriteReg(R6, 0x00000000)  returns 0x00 (0000ms, 0761ms total)
T32DC 001:025 JLINK_WriteReg(R7, 0x00000000)  returns 0x00 (0000ms, 0761ms total)
T32DC 001:025 JLINK_WriteReg(R8, 0x00000000)  returns 0x00 (0000ms, 0761ms total)
T32DC 001:025 JLINK_WriteReg(R9, 0x20000160)  returns 0x00 (0000ms, 0761ms total)
T32DC 001:025 JLINK_WriteReg(R10, 0x00000000)  returns 0x00 (0000ms, 0761ms total)
T32DC 001:025 JLINK_WriteReg(R11, 0x00000000)  returns 0x00 (0000ms, 0761ms total)
T32DC 001:025 JLINK_WriteReg(R12, 0x00000000)  returns 0x00 (0000ms, 0761ms total)
T32DC 001:025 JLINK_WriteReg(R13 (SP), 0x20000800)  returns 0x00 (0000ms, 0761ms total)
T32DC 001:025 JLINK_WriteReg(R14, 0x20000001)  returns 0x00 (0000ms, 0761ms total)
T32DC 001:025 JLINK_WriteReg(R15 (PC), 0x200000F4)  returns 0x00 (0000ms, 0761ms total)
T32DC 001:025 JLINK_WriteReg(XPSR, 0x01000000)  returns 0x00 (0000ms, 0761ms total)
T32DC 001:025 JLINK_WriteReg(MSP, 0x20000800)  returns 0x00 (0000ms, 0761ms total)
T32DC 001:025 JLINK_WriteReg(PSP, 0x20000800)  returns 0x00 (0000ms, 0761ms total)
T32DC 001:025 JLINK_WriteReg(CFBP, 0x00000000)  returns 0x00 (0000ms, 0761ms total)
T32DC 001:025 JLINK_SetBPEx(Addr = 0x20000000, Type = 0xFFFFFFF2)  returns 0x00000006 (0000ms, 0761ms total)
T32DC 001:025 JLINK_Go() -- CPU_ReadMem(4 bytes @ 0xE0001000) (0003ms, 0764ms total)
T32DC 001:028 JLINK_IsHalted()  returns FALSE (0001ms, 0765ms total)
T32DC 001:034 JLINK_IsHalted()  returns FALSE (0000ms, 0764ms total)
T32DC 001:035 JLINK_IsHalted()  returns FALSE (0000ms, 0764ms total)
T32DC 001:036 JLINK_IsHalted()  returns FALSE (0000ms, 0764ms total)
T32DC 001:037 JLINK_IsHalted()  returns FALSE (0000ms, 0764ms total)
T32DC 001:038 JLINK_IsHalted()  returns FALSE (0000ms, 0764ms total)
T32DC 001:039 JLINK_IsHalted()  returns FALSE (0000ms, 0764ms total)
T32DC 001:040 JLINK_IsHalted()  returns FALSE (0000ms, 0764ms total)
T32DC 001:041 JLINK_IsHalted()  returns FALSE (0000ms, 0764ms total)
T32DC 001:042 JLINK_IsHalted()  returns FALSE (0000ms, 0764ms total)
T32DC 001:043 JLINK_IsHalted()  returns FALSE (0000ms, 0764ms total)
T32DC 001:044 JLINK_IsHalted()  returns FALSE (0000ms, 0764ms total)
T32DC 001:045 JLINK_IsHalted()  returns FALSE (0000ms, 0764ms total)
T32DC 001:046 JLINK_IsHalted()  returns FALSE (0000ms, 0764ms total)
T32DC 001:047 JLINK_IsHalted()  returns FALSE (0000ms, 0764ms total)
T32DC 001:048 JLINK_IsHalted()  returns FALSE (0000ms, 0764ms total)
T32DC 001:049 JLINK_IsHalted()  returns FALSE (0000ms, 0764ms total)
T32DC 001:050 JLINK_IsHalted()  returns FALSE (0000ms, 0764ms total)
T32DC 001:051 JLINK_IsHalted()  returns FALSE (0000ms, 0764ms total)
T32DC 001:052 JLINK_IsHalted()  returns FALSE (0000ms, 0764ms total)
T32DC 001:053 JLINK_IsHalted()  returns FALSE (0000ms, 0764ms total)
T32DC 001:054 JLINK_IsHalted()  returns FALSE (0000ms, 0764ms total)
T32DC 001:055 JLINK_IsHalted()  returns FALSE (0000ms, 0764ms total)
T32DC 001:056 JLINK_IsHalted()  returns FALSE (0000ms, 0764ms total)
T32DC 001:057 JLINK_IsHalted()  returns FALSE (0000ms, 0764ms total)
T32DC 001:058 JLINK_IsHalted()  returns FALSE (0000ms, 0764ms total)
T32DC 001:059 JLINK_IsHalted() -- CPU_ReadMem(2 bytes @ 0x20000000)  returns TRUE (0004ms, 0768ms total)
T32DC 001:063 JLINK_ReadReg(R15 (PC))  returns 0x20000000 (0000ms, 0764ms total)
T32DC 001:063 JLINK_ClrBPEx(BPHandle = 0x00000006)  returns 0x00 (0000ms, 0764ms total)
T32DC 001:063 JLINK_ReadReg(R0)  returns 0x00000000 (0000ms, 0764ms total)
T32DC 001:064 JLINK_WriteMem(0x20000164, 0x0400 Bytes, ...) - Data: F9 D0 0D 48 02 F0 4E FF 10 BD 2D E9 F0 41 07 46 ... -- CPU_WriteMem(1024 bytes @ 0x20000164)  returns 0x400 (0012ms, 0776ms total)
T32DC 001:076 JLINK_WriteReg(R0, 0x08000800)  returns 0x00 (0000ms, 0776ms total)
T32DC 001:076 JLINK_WriteReg(R1, 0x00000400)  returns 0x00 (0000ms, 0776ms total)
T32DC 001:076 JLINK_WriteReg(R2, 0x20000164)  returns 0x00 (0000ms, 0776ms total)
T32DC 001:076 JLINK_WriteReg(R3, 0x00000000)  returns 0x00 (0000ms, 0776ms total)
T32DC 001:076 JLINK_WriteReg(R4, 0x00000000)  returns 0x00 (0001ms, 0777ms total)
T32DC 001:077 JLINK_WriteReg(R5, 0x00000000)  returns 0x00 (0000ms, 0777ms total)
T32DC 001:077 JLINK_WriteReg(R6, 0x00000000)  returns 0x00 (0000ms, 0777ms total)
T32DC 001:077 JLINK_WriteReg(R7, 0x00000000)  returns 0x00 (0000ms, 0777ms total)
T32DC 001:077 JLINK_WriteReg(R8, 0x00000000)  returns 0x00 (0000ms, 0777ms total)
T32DC 001:077 JLINK_WriteReg(R9, 0x20000160)  returns 0x00 (0000ms, 0777ms total)
T32DC 001:077 JLINK_WriteReg(R10, 0x00000000)  returns 0x00 (0000ms, 0777ms total)
T32DC 001:077 JLINK_WriteReg(R11, 0x00000000)  returns 0x00 (0000ms, 0777ms total)
T32DC 001:077 JLINK_WriteReg(R12, 0x00000000)  returns 0x00 (0000ms, 0777ms total)
T32DC 001:077 JLINK_WriteReg(R13 (SP), 0x20000800)  returns 0x00 (0000ms, 0777ms total)
T32DC 001:077 JLINK_WriteReg(R14, 0x20000001)  returns 0x00 (0000ms, 0777ms total)
T32DC 001:077 JLINK_WriteReg(R15 (PC), 0x200000F4)  returns 0x00 (0000ms, 0777ms total)
T32DC 001:077 JLINK_WriteReg(XPSR, 0x01000000)  returns 0x00 (0000ms, 0777ms total)
T32DC 001:077 JLINK_WriteReg(MSP, 0x20000800)  returns 0x00 (0000ms, 0777ms total)
T32DC 001:077 JLINK_WriteReg(PSP, 0x20000800)  returns 0x00 (0001ms, 0778ms total)
T32DC 001:078 JLINK_WriteReg(CFBP, 0x00000000)  returns 0x00 (0000ms, 0778ms total)
T32DC 001:078 JLINK_SetBPEx(Addr = 0x20000000, Type = 0xFFFFFFF2)  returns 0x00000007 (0000ms, 0778ms total)
T32DC 001:078 JLINK_Go() -- CPU_ReadMem(4 bytes @ 0xE0001000) (0003ms, 0781ms total)
T32DC 001:081 JLINK_IsHalted()  returns FALSE (0000ms, 0781ms total)
T32DC 001:086 JLINK_IsHalted()  returns FALSE (0000ms, 0781ms total)
T32DC 001:087 JLINK_IsHalted()  returns FALSE (0000ms, 0781ms total)
T32DC 001:088 JLINK_IsHalted()  returns FALSE (0000ms, 0781ms total)
T32DC 001:089 JLINK_IsHalted()  returns FALSE (0000ms, 0781ms total)
T32DC 001:090 JLINK_IsHalted()  returns FALSE (0000ms, 0781ms total)
T32DC 001:091 JLINK_IsHalted()  returns FALSE (0000ms, 0781ms total)
T32DC 001:092 JLINK_IsHalted()  returns FALSE (0000ms, 0781ms total)
T32DC 001:100 JLINK_IsHalted()  returns FALSE (0000ms, 0781ms total)
T32DC 001:101 JLINK_IsHalted()  returns FALSE (0000ms, 0781ms total)
T32DC 001:102 JLINK_IsHalted()  returns FALSE (0000ms, 0781ms total)
T32DC 001:103 JLINK_IsHalted()  returns FALSE (0000ms, 0781ms total)
T32DC 001:104 JLINK_IsHalted()  returns FALSE (0000ms, 0781ms total)
T32DC 001:105 JLINK_IsHalted()  returns FALSE (0000ms, 0781ms total)
T32DC 001:106 JLINK_IsHalted()  returns FALSE (0000ms, 0781ms total)
T32DC 001:107 JLINK_IsHalted()  returns FALSE (0000ms, 0781ms total)
T32DC 001:108 JLINK_IsHalted()  returns FALSE (0000ms, 0781ms total)
T32DC 001:109 JLINK_IsHalted()  returns FALSE (0000ms, 0781ms total)
T32DC 001:110 JLINK_IsHalted()  returns FALSE (0000ms, 0781ms total)
T32DC 001:111 JLINK_IsHalted()  returns FALSE (0000ms, 0781ms total)
T32DC 001:112 JLINK_IsHalted() -- CPU_ReadMem(2 bytes @ 0x20000000)  returns TRUE (0004ms, 0785ms total)
T32DC 001:116 JLINK_ReadReg(R15 (PC))  returns 0x20000000 (0000ms, 0781ms total)
T32DC 001:116 JLINK_ClrBPEx(BPHandle = 0x00000007)  returns 0x00 (0000ms, 0781ms total)
T32DC 001:116 JLINK_ReadReg(R0)  returns 0x00000000 (0000ms, 0781ms total)
T32DC 001:116 JLINK_WriteMem(0x20000164, 0x0400 Bytes, ...) - Data: 00 BF 68 1C 82 49 88 71 60 1C C8 71 7E 48 B6 FB ... -- CPU_WriteMem(1024 bytes @ 0x20000164)  returns 0x400 (0013ms, 0794ms total)
T32DC 001:129 JLINK_WriteReg(R0, 0x08000C00)  returns 0x00 (0000ms, 0794ms total)
T32DC 001:129 JLINK_WriteReg(R1, 0x00000400)  returns 0x00 (0000ms, 0794ms total)
T32DC 001:129 JLINK_WriteReg(R2, 0x20000164)  returns 0x00 (0000ms, 0794ms total)
T32DC 001:129 JLINK_WriteReg(R3, 0x00000000)  returns 0x00 (0000ms, 0794ms total)
T32DC 001:129 JLINK_WriteReg(R4, 0x00000000)  returns 0x00 (0000ms, 0794ms total)
T32DC 001:129 JLINK_WriteReg(R5, 0x00000000)  returns 0x00 (0000ms, 0794ms total)
T32DC 001:129 JLINK_WriteReg(R6, 0x00000000)  returns 0x00 (0000ms, 0794ms total)
T32DC 001:129 JLINK_WriteReg(R7, 0x00000000)  returns 0x00 (0000ms, 0794ms total)
T32DC 001:129 JLINK_WriteReg(R8, 0x00000000)  returns 0x00 (0000ms, 0794ms total)
T32DC 001:129 JLINK_WriteReg(R9, 0x20000160)  returns 0x00 (0000ms, 0794ms total)
T32DC 001:129 JLINK_WriteReg(R10, 0x00000000)  returns 0x00 (0001ms, 0795ms total)
T32DC 001:130 JLINK_WriteReg(R11, 0x00000000)  returns 0x00 (0000ms, 0795ms total)
T32DC 001:130 JLINK_WriteReg(R12, 0x00000000)  returns 0x00 (0000ms, 0795ms total)
T32DC 001:130 JLINK_WriteReg(R13 (SP), 0x20000800)  returns 0x00 (0000ms, 0795ms total)
T32DC 001:130 JLINK_WriteReg(R14, 0x20000001)  returns 0x00 (0000ms, 0795ms total)
T32DC 001:130 JLINK_WriteReg(R15 (PC), 0x200000F4)  returns 0x00 (0000ms, 0795ms total)
T32DC 001:130 JLINK_WriteReg(XPSR, 0x01000000)  returns 0x00 (0000ms, 0795ms total)
T32DC 001:130 JLINK_WriteReg(MSP, 0x20000800)  returns 0x00 (0000ms, 0795ms total)
T32DC 001:130 JLINK_WriteReg(PSP, 0x20000800)  returns 0x00 (0000ms, 0795ms total)
T32DC 001:130 JLINK_WriteReg(CFBP, 0x00000000)  returns 0x00 (0000ms, 0795ms total)
T32DC 001:130 JLINK_SetBPEx(Addr = 0x20000000, Type = 0xFFFFFFF2)  returns 0x00000008 (0000ms, 0795ms total)
T32DC 001:130 JLINK_Go() -- CPU_ReadMem(4 bytes @ 0xE0001000) (0003ms, 0798ms total)
T32DC 001:133 JLINK_IsHalted()  returns FALSE (0001ms, 0799ms total)
T32DC 001:139 JLINK_IsHalted()  returns FALSE (0000ms, 0798ms total)
T32DC 001:140 JLINK_IsHalted()  returns FALSE (0000ms, 0798ms total)
T32DC 001:141 JLINK_IsHalted()  returns FALSE (0000ms, 0798ms total)
T32DC 001:142 JLINK_IsHalted()  returns FALSE (0000ms, 0798ms total)
T32DC 001:143 JLINK_IsHalted()  returns FALSE (0000ms, 0798ms total)
T32DC 001:144 JLINK_IsHalted()  returns FALSE (0000ms, 0798ms total)
T32DC 001:145 JLINK_IsHalted()  returns FALSE (0000ms, 0798ms total)
T32DC 001:146 JLINK_IsHalted()  returns FALSE (0000ms, 0798ms total)
T32DC 001:147 JLINK_IsHalted()  returns FALSE (0000ms, 0798ms total)
T32DC 001:148 JLINK_IsHalted()  returns FALSE (0000ms, 0798ms total)
T32DC 001:149 JLINK_IsHalted()  returns FALSE (0000ms, 0798ms total)
T32DC 001:150 JLINK_IsHalted()  returns FALSE (0000ms, 0798ms total)
T32DC 001:151 JLINK_IsHalted()  returns FALSE (0000ms, 0798ms total)
T32DC 001:152 JLINK_IsHalted()  returns FALSE (0000ms, 0798ms total)
T32DC 001:153 JLINK_IsHalted()  returns FALSE (0000ms, 0798ms total)
T32DC 001:154 JLINK_IsHalted()  returns FALSE (0000ms, 0798ms total)
T32DC 001:155 JLINK_IsHalted()  returns FALSE (0000ms, 0798ms total)
T32DC 001:156 JLINK_IsHalted()  returns FALSE (0000ms, 0798ms total)
T32DC 001:157 JLINK_IsHalted()  returns FALSE (0000ms, 0798ms total)
T32DC 001:158 JLINK_IsHalted()  returns FALSE (0000ms, 0798ms total)
T32DC 001:159 JLINK_IsHalted()  returns FALSE (0000ms, 0798ms total)
T32DC 001:160 JLINK_IsHalted()  returns FALSE (0000ms, 0798ms total)
T32DC 001:161 JLINK_IsHalted()  returns FALSE (0000ms, 0798ms total)
T32DC 001:162 JLINK_IsHalted()  returns FALSE (0000ms, 0798ms total)
T32DC 001:163 JLINK_IsHalted()  returns FALSE (0000ms, 0798ms total)
T32DC 001:164 JLINK_IsHalted() -- CPU_ReadMem(2 bytes @ 0x20000000)  returns TRUE (0004ms, 0802ms total)
T32DC 001:168 JLINK_ReadReg(R15 (PC))  returns 0x20000000 (0000ms, 0798ms total)
T32DC 001:168 JLINK_ClrBPEx(BPHandle = 0x00000008)  returns 0x00 (0000ms, 0798ms total)
T32DC 001:168 JLINK_ReadReg(R0)  returns 0x00000000 (0000ms, 0798ms total)
T32DC 001:168 JLINK_WriteMem(0x20000164, 0x0400 Bytes, ...) - Data: 05 E0 60 1C C4 B2 C8 2C 01 DD 00 20 70 BD 02 21 ... -- CPU_WriteMem(1024 bytes @ 0x20000164)  returns 0x400 (0013ms, 0811ms total)
T32DC 001:181 JLINK_WriteReg(R0, 0x08001000)  returns 0x00 (0000ms, 0811ms total)
T32DC 001:181 JLINK_WriteReg(R1, 0x00000400)  returns 0x00 (0000ms, 0811ms total)
T32DC 001:181 JLINK_WriteReg(R2, 0x20000164)  returns 0x00 (0000ms, 0811ms total)
T32DC 001:181 JLINK_WriteReg(R3, 0x00000000)  returns 0x00 (0000ms, 0811ms total)
T32DC 001:181 JLINK_WriteReg(R4, 0x00000000)  returns 0x00 (0000ms, 0811ms total)
T32DC 001:181 JLINK_WriteReg(R5, 0x00000000)  returns 0x00 (0000ms, 0811ms total)
T32DC 001:181 JLINK_WriteReg(R6, 0x00000000)  returns 0x00 (0000ms, 0811ms total)
T32DC 001:181 JLINK_WriteReg(R7, 0x00000000)  returns 0x00 (0000ms, 0811ms total)
T32DC 001:181 JLINK_WriteReg(R8, 0x00000000)  returns 0x00 (0000ms, 0811ms total)
T32DC 001:181 JLINK_WriteReg(R9, 0x20000160)  returns 0x00 (0000ms, 0811ms total)
T32DC 001:181 JLINK_WriteReg(R10, 0x00000000)  returns 0x00 (0000ms, 0811ms total)
T32DC 001:181 JLINK_WriteReg(R11, 0x00000000)  returns 0x00 (0000ms, 0811ms total)
T32DC 001:181 JLINK_WriteReg(R12, 0x00000000)  returns 0x00 (0001ms, 0812ms total)
T32DC 001:182 JLINK_WriteReg(R13 (SP), 0x20000800)  returns 0x00 (0000ms, 0812ms total)
T32DC 001:182 JLINK_WriteReg(R14, 0x20000001)  returns 0x00 (0000ms, 0812ms total)
T32DC 001:182 JLINK_WriteReg(R15 (PC), 0x200000F4)  returns 0x00 (0000ms, 0812ms total)
T32DC 001:182 JLINK_WriteReg(XPSR, 0x01000000)  returns 0x00 (0000ms, 0812ms total)
T32DC 001:182 JLINK_WriteReg(MSP, 0x20000800)  returns 0x00 (0000ms, 0812ms total)
T32DC 001:182 JLINK_WriteReg(PSP, 0x20000800)  returns 0x00 (0000ms, 0812ms total)
T32DC 001:182 JLINK_WriteReg(CFBP, 0x00000000)  returns 0x00 (0000ms, 0812ms total)
T32DC 001:182 JLINK_SetBPEx(Addr = 0x20000000, Type = 0xFFFFFFF2)  returns 0x00000009 (0000ms, 0812ms total)
T32DC 001:182 JLINK_Go() -- CPU_ReadMem(4 bytes @ 0xE0001000) (0003ms, 0815ms total)
T32DC 001:185 JLINK_IsHalted()  returns FALSE (0000ms, 0815ms total)
T32DC 001:188 JLINK_IsHalted()  returns FALSE (0000ms, 0815ms total)
T32DC 001:189 JLINK_IsHalted()  returns FALSE (0000ms, 0815ms total)
T32DC 001:190 JLINK_IsHalted()  returns FALSE (0000ms, 0815ms total)
T32DC 001:191 JLINK_IsHalted()  returns FALSE (0000ms, 0815ms total)
T32DC 001:192 JLINK_IsHalted()  returns FALSE (0000ms, 0815ms total)
T32DC 001:193 JLINK_IsHalted()  returns FALSE (0000ms, 0815ms total)
T32DC 001:194 JLINK_IsHalted()  returns FALSE (0000ms, 0815ms total)
T32DC 001:195 JLINK_IsHalted()  returns FALSE (0000ms, 0815ms total)
T32DC 001:196 JLINK_IsHalted()  returns FALSE (0000ms, 0815ms total)
T32DC 001:197 JLINK_IsHalted()  returns FALSE (0000ms, 0815ms total)
T32DC 001:198 JLINK_IsHalted()  returns FALSE (0000ms, 0815ms total)
T32DC 001:199 JLINK_IsHalted()  returns FALSE (0000ms, 0815ms total)
T32DC 001:200 JLINK_IsHalted()  returns FALSE (0000ms, 0815ms total)
T32DC 001:201 JLINK_IsHalted()  returns FALSE (0000ms, 0815ms total)
T32DC 001:202 JLINK_IsHalted()  returns FALSE (0000ms, 0815ms total)
T32DC 001:203 JLINK_IsHalted()  returns FALSE (0000ms, 0815ms total)
T32DC 001:204 JLINK_IsHalted()  returns FALSE (0000ms, 0815ms total)
T32DC 001:205 JLINK_IsHalted()  returns FALSE (0000ms, 0815ms total)
T32DC 001:206 JLINK_IsHalted()  returns FALSE (0000ms, 0815ms total)
T32DC 001:207 JLINK_IsHalted()  returns FALSE (0000ms, 0815ms total)
T32DC 001:208 JLINK_IsHalted()  returns FALSE (0000ms, 0815ms total)
T32DC 001:209 JLINK_IsHalted()  returns FALSE (0000ms, 0815ms total)
T32DC 001:210 JLINK_IsHalted()  returns FALSE (0000ms, 0815ms total)
T32DC 001:211 JLINK_IsHalted()  returns FALSE (0000ms, 0815ms total)
T32DC 001:212 JLINK_IsHalted()  returns FALSE (0000ms, 0815ms total)
T32DC 001:213 JLINK_IsHalted()  returns FALSE (0000ms, 0815ms total)
T32DC 001:214 JLINK_IsHalted()  returns FALSE (0000ms, 0815ms total)
T32DC 001:215 JLINK_IsHalted()  returns FALSE (0000ms, 0815ms total)
T32DC 001:216 JLINK_IsHalted() -- CPU_ReadMem(2 bytes @ 0x20000000)  returns TRUE (0004ms, 0819ms total)
T32DC 001:220 JLINK_ReadReg(R15 (PC))  returns 0x20000000 (0000ms, 0815ms total)
T32DC 001:220 JLINK_ClrBPEx(BPHandle = 0x00000009)  returns 0x00 (0000ms, 0815ms total)
T32DC 001:220 JLINK_ReadReg(R0)  returns 0x00000000 (0000ms, 0815ms total)
T32DC 001:220 JLINK_WriteMem(0x20000164, 0x0400 Bytes, ...) - Data: 46 0D 36 01 03 FA 06 F6 31 43 00 F0 00 46 B6 F1 ... -- CPU_WriteMem(1024 bytes @ 0x20000164)  returns 0x400 (0013ms, 0828ms total)
T32DC 001:233 JLINK_WriteReg(R0, 0x08001400)  returns 0x00 (0000ms, 0828ms total)
T32DC 001:233 JLINK_WriteReg(R1, 0x00000400)  returns 0x00 (0000ms, 0828ms total)
T32DC 001:233 JLINK_WriteReg(R2, 0x20000164)  returns 0x00 (0000ms, 0828ms total)
T32DC 001:233 JLINK_WriteReg(R3, 0x00000000)  returns 0x00 (0000ms, 0828ms total)
T32DC 001:233 JLINK_WriteReg(R4, 0x00000000)  returns 0x00 (0000ms, 0828ms total)
T32DC 001:233 JLINK_WriteReg(R5, 0x00000000)  returns 0x00 (0000ms, 0828ms total)
T32DC 001:233 JLINK_WriteReg(R6, 0x00000000)  returns 0x00 (0000ms, 0828ms total)
T32DC 001:233 JLINK_WriteReg(R7, 0x00000000)  returns 0x00 (0000ms, 0828ms total)
T32DC 001:233 JLINK_WriteReg(R8, 0x00000000)  returns 0x00 (0000ms, 0828ms total)
T32DC 001:233 JLINK_WriteReg(R9, 0x20000160)  returns 0x00 (0000ms, 0828ms total)
T32DC 001:233 JLINK_WriteReg(R10, 0x00000000)  returns 0x00 (0001ms, 0829ms total)
T32DC 001:234 JLINK_WriteReg(R11, 0x00000000)  returns 0x00 (0000ms, 0829ms total)
T32DC 001:234 JLINK_WriteReg(R12, 0x00000000)  returns 0x00 (0000ms, 0829ms total)
T32DC 001:234 JLINK_WriteReg(R13 (SP), 0x20000800)  returns 0x00 (0000ms, 0829ms total)
T32DC 001:234 JLINK_WriteReg(R14, 0x20000001)  returns 0x00 (0000ms, 0829ms total)
T32DC 001:234 JLINK_WriteReg(R15 (PC), 0x200000F4)  returns 0x00 (0000ms, 0829ms total)
T32DC 001:234 JLINK_WriteReg(XPSR, 0x01000000)  returns 0x00 (0000ms, 0829ms total)
T32DC 001:234 JLINK_WriteReg(MSP, 0x20000800)  returns 0x00 (0000ms, 0829ms total)
T32DC 001:234 JLINK_WriteReg(PSP, 0x20000800)  returns 0x00 (0000ms, 0829ms total)
T32DC 001:234 JLINK_WriteReg(CFBP, 0x00000000)  returns 0x00 (0000ms, 0829ms total)
T32DC 001:234 JLINK_SetBPEx(Addr = 0x20000000, Type = 0xFFFFFFF2)  returns 0x0000000A (0000ms, 0829ms total)
T32DC 001:234 JLINK_Go() -- CPU_ReadMem(4 bytes @ 0xE0001000) (0003ms, 0832ms total)
T32DC 001:237 JLINK_IsHalted()  returns FALSE (0001ms, 0833ms total)
T32DC 001:246 JLINK_IsHalted()  returns FALSE (0000ms, 0832ms total)
T32DC 001:247 JLINK_IsHalted()  returns FALSE (0000ms, 0832ms total)
T32DC 001:248 JLINK_IsHalted()  returns FALSE (0000ms, 0832ms total)
T32DC 001:249 JLINK_IsHalted()  returns FALSE (0000ms, 0832ms total)
T32DC 001:250 JLINK_IsHalted()  returns FALSE (0000ms, 0832ms total)
T32DC 001:251 JLINK_IsHalted()  returns FALSE (0000ms, 0832ms total)
T32DC 001:252 JLINK_IsHalted()  returns FALSE (0000ms, 0832ms total)
T32DC 001:253 JLINK_IsHalted()  returns FALSE (0000ms, 0832ms total)
T32DC 001:254 JLINK_IsHalted()  returns FALSE (0000ms, 0832ms total)
T32DC 001:255 JLINK_IsHalted()  returns FALSE (0000ms, 0832ms total)
T32DC 001:256 JLINK_IsHalted()  returns FALSE (0000ms, 0832ms total)
T32DC 001:257 JLINK_IsHalted()  returns FALSE (0000ms, 0832ms total)
T32DC 001:258 JLINK_IsHalted()  returns FALSE (0000ms, 0832ms total)
T32DC 001:259 JLINK_IsHalted()  returns FALSE (0000ms, 0832ms total)
T32DC 001:260 JLINK_IsHalted()  returns FALSE (0000ms, 0832ms total)
T32DC 001:261 JLINK_IsHalted()  returns FALSE (0000ms, 0832ms total)
T32DC 001:262 JLINK_IsHalted()  returns FALSE (0000ms, 0832ms total)
T32DC 001:263 JLINK_IsHalted()  returns FALSE (0000ms, 0832ms total)
T32DC 001:264 JLINK_IsHalted()  returns FALSE (0000ms, 0832ms total)
T32DC 001:265 JLINK_IsHalted()  returns FALSE (0000ms, 0832ms total)
T32DC 001:266 JLINK_IsHalted()  returns FALSE (0000ms, 0832ms total)
T32DC 001:267 JLINK_IsHalted()  returns FALSE (0000ms, 0832ms total)
T32DC 001:268 JLINK_IsHalted() -- CPU_ReadMem(2 bytes @ 0x20000000)  returns TRUE (0004ms, 0836ms total)
T32DC 001:272 JLINK_ReadReg(R15 (PC))  returns 0x20000000 (0000ms, 0832ms total)
T32DC 001:272 JLINK_ClrBPEx(BPHandle = 0x0000000A)  returns 0x00 (0000ms, 0832ms total)
T32DC 001:272 JLINK_ReadReg(R0)  returns 0x00000000 (0000ms, 0832ms total)
T32DC 001:272 JLINK_WriteMem(0x20000164, 0x0400 Bytes, ...) - Data: 0A B1 01 20 00 E0 00 20 70 47 01 49 88 72 70 47 ... -- CPU_WriteMem(1024 bytes @ 0x20000164)  returns 0x400 (0013ms, 0845ms total)
T32DC 001:285 JLINK_WriteReg(R0, 0x08001800)  returns 0x00 (0000ms, 0845ms total)
T32DC 001:285 JLINK_WriteReg(R1, 0x00000400)  returns 0x00 (0000ms, 0845ms total)
T32DC 001:285 JLINK_WriteReg(R2, 0x20000164)  returns 0x00 (0000ms, 0845ms total)
T32DC 001:285 JLINK_WriteReg(R3, 0x00000000)  returns 0x00 (0000ms, 0845ms total)
T32DC 001:285 JLINK_WriteReg(R4, 0x00000000)  returns 0x00 (0000ms, 0845ms total)
T32DC 001:285 JLINK_WriteReg(R5, 0x00000000)  returns 0x00 (0000ms, 0845ms total)
T32DC 001:285 JLINK_WriteReg(R6, 0x00000000)  returns 0x00 (0000ms, 0845ms total)
T32DC 001:285 JLINK_WriteReg(R7, 0x00000000)  returns 0x00 (0000ms, 0845ms total)
T32DC 001:285 JLINK_WriteReg(R8, 0x00000000)  returns 0x00 (0000ms, 0845ms total)
T32DC 001:285 JLINK_WriteReg(R9, 0x20000160)  returns 0x00 (0001ms, 0846ms total)
T32DC 001:286 JLINK_WriteReg(R10, 0x00000000)  returns 0x00 (0000ms, 0846ms total)
T32DC 001:286 JLINK_WriteReg(R11, 0x00000000)  returns 0x00 (0000ms, 0846ms total)
T32DC 001:286 JLINK_WriteReg(R12, 0x00000000)  returns 0x00 (0000ms, 0846ms total)
T32DC 001:286 JLINK_WriteReg(R13 (SP), 0x20000800)  returns 0x00 (0000ms, 0846ms total)
T32DC 001:286 JLINK_WriteReg(R14, 0x20000001)  returns 0x00 (0000ms, 0846ms total)
T32DC 001:286 JLINK_WriteReg(R15 (PC), 0x200000F4)  returns 0x00 (0000ms, 0846ms total)
T32DC 001:286 JLINK_WriteReg(XPSR, 0x01000000)  returns 0x00 (0000ms, 0846ms total)
T32DC 001:286 JLINK_WriteReg(MSP, 0x20000800)  returns 0x00 (0000ms, 0846ms total)
T32DC 001:286 JLINK_WriteReg(PSP, 0x20000800)  returns 0x00 (0000ms, 0846ms total)
T32DC 001:286 JLINK_WriteReg(CFBP, 0x00000000)  returns 0x00 (0000ms, 0846ms total)
T32DC 001:286 JLINK_SetBPEx(Addr = 0x20000000, Type = 0xFFFFFFF2)  returns 0x0000000B (0000ms, 0846ms total)
T32DC 001:286 JLINK_Go() -- CPU_ReadMem(4 bytes @ 0xE0001000) (0003ms, 0849ms total)
T32DC 001:289 JLINK_IsHalted()  returns FALSE (0001ms, 0850ms total)
T32DC 001:293 JLINK_IsHalted()  returns FALSE (0000ms, 0849ms total)
T32DC 001:294 JLINK_IsHalted()  returns FALSE (0000ms, 0849ms total)
T32DC 001:295 JLINK_IsHalted()  returns FALSE (0000ms, 0849ms total)
T32DC 001:296 JLINK_IsHalted()  returns FALSE (0000ms, 0849ms total)
T32DC 001:297 JLINK_IsHalted()  returns FALSE (0000ms, 0849ms total)
T32DC 001:298 JLINK_IsHalted()  returns FALSE (0000ms, 0849ms total)
T32DC 001:299 JLINK_IsHalted()  returns FALSE (0000ms, 0849ms total)
T32DC 001:300 JLINK_IsHalted()  returns FALSE (0000ms, 0849ms total)
T32DC 001:301 JLINK_IsHalted()  returns FALSE (0000ms, 0849ms total)
T32DC 001:302 JLINK_IsHalted()  returns FALSE (0000ms, 0849ms total)
T32DC 001:303 JLINK_IsHalted()  returns FALSE (0000ms, 0849ms total)
T32DC 001:304 JLINK_IsHalted()  returns FALSE (0000ms, 0849ms total)
T32DC 001:305 JLINK_IsHalted()  returns FALSE (0000ms, 0849ms total)
T32DC 001:306 JLINK_IsHalted()  returns FALSE (0000ms, 0849ms total)
T32DC 001:307 JLINK_IsHalted()  returns FALSE (0000ms, 0849ms total)
T32DC 001:308 JLINK_IsHalted()  returns FALSE (0000ms, 0849ms total)
T32DC 001:309 JLINK_IsHalted()  returns FALSE (0000ms, 0849ms total)
T32DC 001:310 JLINK_IsHalted()  returns FALSE (0000ms, 0849ms total)
T32DC 001:311 JLINK_IsHalted()  returns FALSE (0000ms, 0849ms total)
T32DC 001:312 JLINK_IsHalted()  returns FALSE (0000ms, 0849ms total)
T32DC 001:313 JLINK_IsHalted()  returns FALSE (0000ms, 0849ms total)
T32DC 001:316 JLINK_IsHalted()  returns FALSE (0000ms, 0849ms total)
T32DC 001:317 JLINK_IsHalted()  returns FALSE (0000ms, 0849ms total)
T32DC 001:318 JLINK_IsHalted()  returns FALSE (0000ms, 0849ms total)
T32DC 001:319 JLINK_IsHalted()  returns FALSE (0000ms, 0849ms total)
T32DC 001:320 JLINK_IsHalted() -- CPU_ReadMem(2 bytes @ 0x20000000)  returns TRUE (0004ms, 0853ms total)
T32DC 001:324 JLINK_ReadReg(R15 (PC))  returns 0x20000000 (0000ms, 0849ms total)
T32DC 001:324 JLINK_ClrBPEx(BPHandle = 0x0000000B)  returns 0x00 (0000ms, 0849ms total)
T32DC 001:324 JLINK_ReadReg(R0)  returns 0x00000000 (0000ms, 0849ms total)
T32DC 001:325 JLINK_WriteMem(0x20000164, 0x0400 Bytes, ...) - Data: 01 20 00 E0 00 20 70 BD 10 B5 00 22 00 23 40 F6 ... -- CPU_WriteMem(1024 bytes @ 0x20000164)  returns 0x400 (0012ms, 0861ms total)
T32DC 001:337 JLINK_WriteReg(R0, 0x08001C00)  returns 0x00 (0000ms, 0861ms total)
T32DC 001:337 JLINK_WriteReg(R1, 0x00000400)  returns 0x00 (0000ms, 0861ms total)
T32DC 001:337 JLINK_WriteReg(R2, 0x20000164)  returns 0x00 (0000ms, 0861ms total)
T32DC 001:337 JLINK_WriteReg(R3, 0x00000000)  returns 0x00 (0000ms, 0861ms total)
T32DC 001:337 JLINK_WriteReg(R4, 0x00000000)  returns 0x00 (0000ms, 0861ms total)
T32DC 001:337 JLINK_WriteReg(R5, 0x00000000)  returns 0x00 (0000ms, 0861ms total)
T32DC 001:337 JLINK_WriteReg(R6, 0x00000000)  returns 0x00 (0000ms, 0861ms total)
T32DC 001:337 JLINK_WriteReg(R7, 0x00000000)  returns 0x00 (0000ms, 0861ms total)
T32DC 001:338 JLINK_WriteReg(R8, 0x00000000)  returns 0x00 (0000ms, 0862ms total)
T32DC 001:338 JLINK_WriteReg(R9, 0x20000160)  returns 0x00 (0000ms, 0862ms total)
T32DC 001:338 JLINK_WriteReg(R10, 0x00000000)  returns 0x00 (0000ms, 0862ms total)
T32DC 001:338 JLINK_WriteReg(R11, 0x00000000)  returns 0x00 (0000ms, 0862ms total)
T32DC 001:338 JLINK_WriteReg(R12, 0x00000000)  returns 0x00 (0000ms, 0862ms total)
T32DC 001:338 JLINK_WriteReg(R13 (SP), 0x20000800)  returns 0x00 (0000ms, 0862ms total)
T32DC 001:338 JLINK_WriteReg(R14, 0x20000001)  returns 0x00 (0000ms, 0862ms total)
T32DC 001:338 JLINK_WriteReg(R15 (PC), 0x200000F4)  returns 0x00 (0000ms, 0862ms total)
T32DC 001:338 JLINK_WriteReg(XPSR, 0x01000000)  returns 0x00 (0000ms, 0862ms total)
T32DC 001:338 JLINK_WriteReg(MSP, 0x20000800)  returns 0x00 (0000ms, 0862ms total)
T32DC 001:338 JLINK_WriteReg(PSP, 0x20000800)  returns 0x00 (0000ms, 0862ms total)
T32DC 001:338 JLINK_WriteReg(CFBP, 0x00000000)  returns 0x00 (0000ms, 0862ms total)
T32DC 001:338 JLINK_SetBPEx(Addr = 0x20000000, Type = 0xFFFFFFF2)  returns 0x0000000C (0000ms, 0862ms total)
T32DC 001:338 JLINK_Go() -- CPU_ReadMem(4 bytes @ 0xE0001000) (0003ms, 0865ms total)
T32DC 001:341 JLINK_IsHalted()  returns FALSE (0001ms, 0866ms total)
T32DC 001:344 JLINK_IsHalted()  returns FALSE (0000ms, 0865ms total)
T32DC 001:345 JLINK_IsHalted()  returns FALSE (0000ms, 0865ms total)
T32DC 001:356 JLINK_IsHalted()  returns FALSE (0000ms, 0865ms total)
T32DC 001:357 JLINK_IsHalted()  returns FALSE (0000ms, 0865ms total)
T32DC 001:358 JLINK_IsHalted()  returns FALSE (0000ms, 0865ms total)
T32DC 001:359 JLINK_IsHalted()  returns FALSE (0000ms, 0865ms total)
T32DC 001:360 JLINK_IsHalted()  returns FALSE (0000ms, 0865ms total)
T32DC 001:361 JLINK_IsHalted()  returns FALSE (0000ms, 0865ms total)
T32DC 001:362 JLINK_IsHalted()  returns FALSE (0000ms, 0865ms total)
T32DC 001:363 JLINK_IsHalted()  returns FALSE (0000ms, 0865ms total)
T32DC 001:364 JLINK_IsHalted()  returns FALSE (0000ms, 0865ms total)
T32DC 001:365 JLINK_IsHalted()  returns FALSE (0000ms, 0865ms total)
T32DC 001:366 JLINK_IsHalted()  returns FALSE (0000ms, 0865ms total)
